raspberry
STATUS	 = 0x0e RX_DR=0 TX_DS=0 MAX_RT=0 RX_P_NO=7 TX_FULL=0
RX_ADDR_P0-1	� =
 0xe8e8f0f0e1 0xf0f0f0f0e1
RX_ADDR_P2-5	� =
0xc3
0xc4
0xc5
0xc6

TX_ADDR		 =
 0xe8e8f0f0e1
RX_PW_P0-6	� =
0x20
0x20
0x00
0x00
0x00
0x00

EN_AA		 =
0x00

EN_RXADDR	� =
0x03

RF_CH		 =
0x76

RF_SETUP	� =
0x07

CONFIG		 =
0x0f

DYNPD/FEATURE	� =
0x3f
0x06

Data Rate	 = 1MBPS
Model		 = nRF24l01+
CRC Length	 = 16 bits
PA Power	 = PA_HIGH


Arduino

SPI Speedz	= 10 Mhz
STATUS		= 0x0e RX_DR=0 TX_DS=0 MAX_RT=0 RX_P_NO=7 TX_FULL=0
RX_ADDR_P0-1	= 0xf0f0f0f0e1 0xe8e8f0f0e1
RX_ADDR_P2-5	= 0xc3 0xc4 0xc5 0xc6
TX_ADDR		= 0xf0f0f0f0e1
RX_PW_P0-6	= 0x20 0x20 0x20 0x20 0x20 0x20
EN_AA		= 0x00
EN_RXADDR	= 0x03
RF_CH		= 0x76
RF_SETUP	= 0x07
CONFIG		= 0x0e
DYNPD/FEATURE	= 0x00 0x00
Data Rate	= 1 MBPS
Model		= nRF24L01+
CRC Length	= 16 bits
PA Power	= PA_MAX
ARC		= 0
